time	V(n002)	V(n012)
0.000000000000000e+000	-2.468262e-002	-2.468262e-002
3.657142753711795e-008	-2.468168e-002	-2.468168e-002
7.314285507423590e-008	-2.468228e-002	-2.468228e-002
1.097142826113539e-007	-2.468443e-002	-2.468442e-002
1.462857101484718e-007	-2.468812e-002	-2.468810e-002
1.828571376855897e-007	-2.469337e-002	-2.469333e-002
2.194285652227077e-007	-2.470016e-002	-2.470009e-002
2.559999927598256e-007	-2.470849e-002	-2.470841e-002
5.119999855196511e-007	-2.482042e-002	-2.482013e-002
8.023807705522533e-007	-2.504842e-002	-2.504790e-002
1.383142340617458e-006	-2.572047e-002	-2.571954e-002
2.215616693440361e-006	-2.695012e-002	-2.694863e-002
3.652802573731839e-006	-2.940124e-002	-2.939872e-002
5.317869633783568e-006	-3.241996e-002	-3.241604e-002
2.281448001951005e-005	-6.489913e-002	-6.486187e-002
4.031109040523653e-005	-9.737576e-002	-9.727063e-002
5.780770079096300e-005	-1.298499e-001	-1.296423e-001
7.530431117668949e-005	-1.623214e-001	-1.619769e-001
9.280092156241597e-005	-1.947904e-001	-1.942745e-001
1.102975319481424e-004	-2.272569e-001	-2.265349e-001
1.277941423338689e-004	-2.597208e-001	-2.587583e-001
2.517789858868253e-004	-4.881715e-001	-4.845394e-001
4.997486729927382e-004	-9.296496e-001	-9.159144e-001
9.956880472045638e-004	-1.726251e+000	-1.679783e+000
1.592988459109407e-003	-2.522669e+000	-2.424287e+000
1.883420686181957e-003	-2.810151e+000	-2.683547e+000
2.089179742916387e-003	-2.948859e+000	-2.802258e+000
2.242667651009292e-003	-3.016370e+000	-2.855789e+000
2.423854503671477e-003	-3.056821e+000	-2.881377e+000
2.621679879690484e-003	-3.056099e+000	-2.866943e+000
2.848059143822418e-003	-2.989553e+000	-2.789469e+000
3.215012116337825e-003	-2.737475e+000	-2.533395e+000
3.799307023135451e-003	-2.073966e+000	-1.895784e+000
4.375225413697872e-003	-1.183540e+000	-1.069149e+000
4.836051988756546e-003	-3.411192e-001	-3.077696e-001
5.269634350887295e-003	4.931197e-001	4.291983e-001
5.703488703349515e-003	1.290527e+000	1.117937e+000
6.231545388627066e-003	2.125590e+000	1.820630e+000
6.770607555519132e-003	2.793258e+000	2.365190e+000
7.006566236198153e-003	2.998846e+000	2.525809e+000
7.180655617781091e-003	3.095809e+000	2.596516e+000
7.348771802561788e-003	3.150532e+000	2.631591e+000
7.534941773403258e-003	3.170641e+000	2.636370e+000
7.706894573477396e-003	3.145784e+000	2.604820e+000
7.986524446847660e-003	3.011446e+000	2.477243e+000
8.437477922702052e-003	2.588290e+000	2.108774e+000
9.143036621874776e-003	1.589119e+000	1.275425e+000
9.634861842608668e-003	7.050050e-001	5.603154e-001
1.008135747282174e-002	-1.933182e-001	-1.479808e-001
1.053020735720633e-002	-1.094618e+000	-8.429141e-001
1.099557239894686e-002	-1.932977e+000	-1.473223e+000
1.160833343245452e-002	-2.838712e+000	-2.134735e+000
1.189385379791460e-002	-3.150972e+000	-2.354620e+000
1.209688024880934e-002	-3.300654e+000	-2.454367e+000
1.224847098022403e-002	-3.372952e+000	-2.498798e+000
1.243091947045803e-002	-3.416187e+000	-2.519477e+000
1.262431041983665e-002	-3.413169e+000	-2.505360e+000
1.285233756786377e-002	-3.335633e+000	-2.435090e+000
1.322191393871476e-002	-3.047836e+000	-2.206597e+000
1.381011098065824e-002	-2.296444e+000	-1.642013e+000
1.437906652911696e-002	-1.311558e+000	-9.271258e-001
1.483947080818748e-002	-3.722059e-001	-2.634581e-001
1.527452625472371e-002	5.594651e-001	3.797443e-001
1.570984234515964e-002	1.447898e+000	9.791340e-001
1.623857799816988e-002	2.374243e+000	1.587603e+000
1.677237617565187e-002	3.104847e+000	2.052331e+000
1.700785172932842e-002	3.330983e+000	2.189926e+000
1.718161686389089e-002	3.437348e+000	2.250181e+000
1.734992952399171e-002	3.497059e+000	2.279686e+000
1.753699717515889e-002	3.518106e+000	2.282732e+000
1.771024109235036e-002	3.488789e+000	2.254022e+000
1.799195561597960e-002	3.335600e+000	2.140522e+000
1.844616162968866e-002	2.857413e+000	1.815592e+000
1.915624868873103e-002	1.735058e+000	1.085354e+000
1.964687405608636e-002	7.549514e-001	4.671879e-001
2.009026882498500e-002	-2.328452e-001	-1.398421e-001
2.053610559804198e-002	-1.221067e+000	-7.333730e-001
2.100475706200116e-002	-2.150030e+000	-1.276971e+000
2.161833618518561e-002	-3.145047e+000	-1.841977e+000
2.189715937316063e-002	-3.478349e+000	-2.024159e+000
2.209932205360282e-002	-3.640650e+000	-2.107881e+000
2.225031196805277e-002	-3.718821e+000	-2.144899e+000
2.243316196201934e-002	-3.765224e+000	-2.161594e+000
2.262514519682785e-002	-3.760552e+000	-2.148486e+000
2.285369524085539e-002	-3.673291e+000	-2.086843e+000
2.322410376436837e-002	-3.353050e+000	-1.888748e+000
2.381353716590208e-002	-2.521080e+000	-1.402119e+000
2.437765159933887e-002	-1.445269e+000	-7.946923e-001
2.483586226927752e-002	-4.170807e-001	-2.300016e-001
2.526968824392577e-002	6.036497e-001	3.174324e-001
2.570370612445180e-002	1.576795e+000	8.270715e-001
2.623074339348257e-002	2.591028e+000	1.343665e+000
2.676931136578945e-002	3.400516e+000	1.742405e+000
2.700562432580916e-002	3.649473e+000	1.859486e+000
2.717995136838172e-002	3.766208e+000	1.910412e+000
2.734792373724093e-002	3.831325e+000	1.935011e+000
2.753343609775167e-002	3.854246e+000	1.937251e+000
2.770444307221866e-002	3.823107e+000	1.913162e+000
2.798254546529937e-002	3.659746e+000	1.818725e+000
2.843111384135387e-002	3.148885e+000	1.548913e+000
2.913334330426584e-002	1.945758e+000	9.415995e-001
2.962278387578918e-002	8.830115e-001	4.222202e-001
3.006794254605066e-002	-1.981342e-001	-9.204351e-002
3.051547769857920e-002	-1.283473e+000	-5.961446e-001
3.097431225133247e-002	-2.283592e+000	-1.048269e+000
3.158555876572942e-002	-3.377583e+000	-1.527571e+000
3.188713780048202e-002	-3.777203e+000	-1.695873e+000
3.209192217039877e-002	-3.959584e+000	-1.768198e+000
3.224473399972094e-002	-4.046830e+000	-1.799801e+000
3.242636937049519e-002	-4.097785e+000	-1.813650e+000
3.262261635816965e-002	-4.093155e+000	-1.802221e+000
3.284958229699583e-002	-3.999581e+000	-1.750728e+000
3.321746940100335e-002	-3.655099e+000	-1.585834e+000
3.380315454134950e-002	-2.759401e+000	-1.181529e+000
3.436945043672460e-002	-1.588540e+000	-6.722147e-001
3.482748967589162e-002	-4.736118e-001	-2.011245e-001
3.526227664076329e-002	6.368071e-001	2.564566e-001
3.569724723948285e-002	1.696121e+000	6.821609e-001
3.622070593825138e-002	2.790384e+000	1.109150e+000
3.676516322302483e-002	3.679497e+000	1.443990e+000
3.700261113307003e-002	3.951202e+000	1.541407e+000
3.717769890149449e-002	4.078264e+000	1.583444e+000
3.734521203227410e-002	4.148703e+000	1.603420e+000
3.752862148776004e-002	4.173729e+000	1.604996e+000
3.769660392959699e-002	4.141788e+000	1.585437e+000
3.796981989123126e-002	3.971853e+000	1.509412e+000
3.841074778922923e-002	3.438012e+000	1.292591e+000
3.910226409928178e-002	2.172981e+000	8.030499e-001
3.959503449743450e-002	1.025461e+000	3.739785e-001
4.003980976350706e-002	-1.379410e-001	-4.871794e-002
4.048687054557423e-002	-1.311668e+000	-4.645539e-001
4.093313886893075e-002	-2.372318e+000	-8.297889e-001
4.154083055507928e-002	-3.564523e+000	-1.226936e+000
4.187492102750721e-002	-4.052745e+000	-1.382955e+000
4.208291349864708e-002	-4.257318e+000	-1.444306e+000
4.223794798250561e-002	-4.354320e+000	-1.470681e+000
4.241811334542053e-002	-4.410013e+000	-1.481846e+000
4.261954155081725e-002	-4.405972e+000	-1.472072e+000
4.284458111949195e-002	-4.307409e+000	-1.430224e+000
4.320940031805320e-002	-3.942372e+000	-1.296784e+000
4.379051641690592e-002	-2.991643e+000	-9.704047e-001
4.435819752628665e-002	-1.734542e+000	-5.555937e-001
4.481496726940492e-002	-5.423198e-001	-1.742403e-001
4.524890260107906e-002	6.478357e-001	1.963623e-001
4.568295227560994e-002	1.785357e+000	5.411833e-001
4.620124916343572e-002	2.952968e+000	8.840763e-001
4.675776250680051e-002	3.934020e+000	1.161356e+000
4.699723971214592e-002	4.230059e+000	1.240708e+000
4.717368525969806e-002	4.368122e+000	1.274608e+000
4.734038289988713e-002	4.444138e+000	1.290411e+000
4.752004672957567e-002	4.472077e+000	1.291626e+000
4.768264212819370e-002	4.441810e+000	1.276750e+000
4.794714784905099e-002	4.273663e+000	1.219116e+000
4.837441760480069e-002	3.738944e+000	1.054540e+000
4.904660412818506e-002	2.454874e+000	6.799273e-001
4.954745583874957e-002	1.225357e+000	3.344568e-001
4.999553990494013e-002	-2.050504e-002	-4.824429e-003
5.044562777382223e-002	-1.287126e+000	-3.404444e-001
5.088185882641348e-002	-2.409936e+000	-6.290181e-001
5.147954573561066e-002	-3.689195e+000	-9.462554e-001
5.185607829224002e-002	-4.294768e+000	-1.089904e+000
5.206904546195663e-002	-4.526420e+000	-1.141262e+000
5.222751170149106e-002	-4.635372e+000	-1.162960e+000
5.240543317447573e-002	-4.696573e+000	-1.171785e+000
5.261481630682934e-002	-4.694556e+000	-1.163715e+000
5.283689496157686e-002	-4.593682e+000	-1.131095e+000
5.319699506488262e-002	-4.214952e+000	-1.027363e+000
5.377106523403959e-002	-3.224111e+000	-7.741128e-001
5.434273202856003e-002	-1.884704e+000	-4.462993e-001
5.479939801101536e-002	-6.210317e-001	-1.472916e-001
5.523456863577571e-002	6.459863e-001	1.440701e-001
5.566982977012467e-002	1.857189e+000	4.150638e-001
5.618199838892363e-002	3.068854e+000	6.775440e-001
5.680972453005016e-002	4.213106e+000	9.159143e-001
5.703507180930761e-002	4.492497e+000	9.709831e-001
5.720199932328342e-002	4.614869e+000	9.927261e-001
5.737452537109764e-002	4.678889e+000	1.001563e+000
5.760328176215982e-002	4.680758e+000	9.954720e-001
5.781813006985243e-002	4.586936e+000	9.696764e-001
5.816668866956316e-002	4.227489e+000	8.854566e-001
5.872343794220855e-002	3.278409e+000	6.770326e-001
5.931684541090272e-002	1.894779e+000	3.851513e-001
5.978153526040199e-002	6.073823e-001	1.220032e-001
6.021949752192252e-002	-6.768028e-001	-1.333741e-001
6.065764650490740e-002	-1.908985e+000	-3.718181e-001
6.117429346666520e-002	-3.148093e+000	-6.037542e-001
6.180544119527312e-002	-4.317196e+000	-8.137630e-001
6.203194296254257e-002	-4.602890e+000	-8.621417e-001
6.219965373314175e-002	-4.728084e+000	-8.810986e-001
6.237169039403639e-002	-4.793024e+000	-8.885423e-001
6.260222239502387e-002	-4.794954e+000	-8.827365e-001
6.281640646943906e-002	-4.700097e+000	-8.598183e-001
6.316390354583901e-002	-4.337108e+000	-7.858037e-001
6.371905355217970e-002	-3.381186e+000	-6.039013e-001
6.430974016788621e-002	-1.994451e+000	-3.511173e-001
6.476779017571265e-002	-7.204419e-001	-1.266093e-001
6.520474738325506e-002	5.632141e-001	9.302391e-002
6.564177649390103e-002	1.794922e+000	2.977411e-001
6.614083994794896e-002	2.998581e+000	4.908429e-001
6.677070823630781e-002	4.180140e+000	6.723416e-001
6.700663940578039e-002	4.485353e+000	7.164503e-001
6.718071032811128e-002	4.621549e+000	7.340431e-001
6.734883768999028e-002	4.694583e+000	7.415338e-001
6.753505875037658e-002	4.714939e+000	7.401937e-001
6.770708503147875e-002	4.669245e+000	7.289039e-001
6.798683356250515e-002	4.456674e+000	6.895574e-001
6.843797225136648e-002	3.814017e+000	5.824322e-001
6.914378917715076e-002	2.327604e+000	3.480251e-001
6.962879414003848e-002	1.049367e+000	1.545152e-001
7.006909398636747e-002	-2.359170e-001	-3.338115e-002
7.051123665826034e-002	-1.515178e+000	-2.146392e-001
7.096670511767145e-002	-2.691533e+000	-3.753764e-001
7.157915516971408e-002	-3.980838e+000	-5.441263e-001
7.188361943273096e-002	-4.450914e+000	-6.023200e-001
7.208932634363030e-002	-4.661125e+000	-6.261297e-001
7.224277809890123e-002	-4.759436e+000	-6.357682e-001
7.242398890537818e-002	-4.813137e+000	-6.387006e-001
7.262172993077566e-002	-4.800906e+000	-6.325224e-001
7.284814055102933e-002	-4.684011e+000	-6.121781e-001
7.321514345463792e-002	-4.271462e+000	-5.514838e-001
7.379951269361926e-002	-3.220647e+000	-4.081453e-001
7.434250157467948e-002	-1.915288e+000	-2.387039e-001
7.479545034603195e-002	-6.407384e-001	-7.972579e-002
7.523145464572642e-002	6.419346e-001	7.477704e-002
7.566906609737467e-002	1.869387e+000	2.174625e-001
7.617803309194728e-002	3.091933e+000	3.536277e-001
7.674713778727886e-002	4.157115e+000	4.661885e-001
7.698953831513068e-002	4.473205e+000	4.972012e-001
7.716793440707999e-002	4.618363e+000	5.097027e-001
7.733346995739932e-002	4.697323e+000	5.149701e-001
7.748835226595734e-002	4.724058e+000	5.146675e-001
7.764567068776740e-002	4.698447e+000	5.086409e-001
7.788707054143813e-002	4.554428e+000	4.883696e-001
7.827788371516320e-002	4.084300e+000	4.316627e-001
7.889741404803963e-002	2.921586e+000	3.018348e-001
7.941580528399138e-002	1.644007e+000	1.665786e-001
7.986869593551998e-002	3.546366e-001	3.592970e-002
8.030777387937158e-002	-9.360513e-001	-8.988225e-002
8.074719646547790e-002	-2.149652e+000	-2.033822e-001
8.129456218686124e-002	-3.429858e+000	-3.173200e-001
8.179001768029853e-002	-4.319142e+000	-3.916996e-001
8.202069165122702e-002	-4.603531e+000	-4.133904e-001
8.219122476209174e-002	-4.734428e+000	-4.218748e-001
8.236151239365296e-002	-4.803353e+000	-4.247046e-001
8.257331019152639e-002	-4.814340e+000	-4.215859e-001
8.276935605656861e-002	-4.741827e+000	-4.115874e-001
8.308779069410197e-002	-4.445467e+000	-3.806047e-001
8.359877185968050e-002	-3.626384e+000	-3.041707e-001
8.422474455488178e-002	-2.217268e+000	-1.813466e-001
8.468441544189832e-002	-9.642571e-001	-7.778925e-002
8.512598733010526e-002	3.327427e-001	2.454241e-002
8.556736018577428e-002	1.597734e+000	1.200760e-001
8.603172409339911e-002	2.764269e+000	2.036713e-001
8.665205491757765e-002	4.013175e+000	2.876741e-001
8.692116170457147e-002	4.402903e+000	3.117435e-001
8.711708097554052e-002	4.586533e+000	3.215376e-001
8.727044977522482e-002	4.674454e+000	3.251208e-001
8.746076489258489e-002	4.720738e+000	3.251168e-001
8.763541454073688e-002	4.701847e+000	3.209045e-001
8.787039538718032e-002	4.570271e+000	3.082226e-001
8.825102655272465e-002	4.126972e+000	2.733116e-001
8.885559165906695e-002	3.016654e+000	1.942000e-001
8.938194434063893e-002	1.736122e+000	1.090490e-001
8.983596036393149e-002	4.509324e-001	2.832060e-002
9.027423422155370e-002	-8.388907e-001	-4.870909e-002
9.071291445627221e-002	-2.061424e+000	-1.179299e-001
9.124646101627362e-002	-3.328325e+000	-1.851828e-001
9.177267239768661e-002	-4.294278e+000	-2.324512e-001
9.200806706497211e-002	-4.592998e+000	-2.453922e-001
9.218177789619554e-002	-4.730383e+000	-2.501360e-001
9.235012349075536e-002	-4.804026e+000	-2.514717e-001
9.253734153582678e-002	-4.823943e+000	-2.496779e-001
9.271080176220380e-002	-4.775997e+000	-2.446374e-001
9.299286548774528e-002	-4.555721e+000	-2.295489e-001
9.344761604651478e-002	-3.893690e+000	-1.915038e-001
9.415845992504109e-002	-2.372673e+000	-1.122903e-001
9.463982580643876e-002	-1.091654e+000	-5.041618e-002
9.508914456612307e-002	2.241038e-001	9.081657e-003
9.553789495758444e-002	1.516779e+000	6.414755e-002
9.599565368435591e-002	2.682586e+000	1.104222e-001
9.660848292930754e-002	3.945350e+000	1.564351e-001
9.689017068645089e-002	4.368384e+000	1.701715e-001
9.709416069911969e-002	4.570509e+000	1.755443e-001
9.724642102352650e-002	4.665492e+000	1.772727e-001
9.742842315529972e-002	4.717484e+000	1.769383e-001
9.762338105449084e-002	4.704376e+000	1.740122e-001
9.785082603206784e-002	4.586895e+000	1.669780e-001
9.821947575584429e-002	4.174489e+000	1.482937e-001
9.880629524160688e-002	3.127667e+000	1.069468e-001
9.932842163699890e-002	1.880164e+000	6.219929e-002
9.979577142457682e-002	5.681674e-001	1.875404e-002
1.002372191527573e-001	-7.307740e-001	-2.128688e-002
1.006791663739852e-001	-1.973290e+000	-5.680937e-002
1.011948323759494e-001	-3.216635e+000	-8.922977e-002
1.017518203243871e-001	-4.263236e+000	-1.134762e-001
1.019929310233698e-001	-4.578946e+000	-1.195804e-001
1.021704672845289e-001	-4.724289e+000	-1.215132e-001
1.023365137297331e-001	-4.803374e+000	-1.217726e-001
1.024947923050056e-001	-4.829968e+000	-1.207561e-001
1.026480643904341e-001	-4.803485e+000	-1.184861e-001
1.028909618525422e-001	-4.654396e+000	-1.124182e-001
1.032841473347900e-001	-4.171849e+000	-9.756816e-002
1.039071487824224e-001	-2.986619e+000	-6.632408e-002
1.044111487441294e-001	-1.733489e+000	-3.686908e-002
1.048773336899683e-001	-4.004284e-001	-8.508331e-003
1.053538091915549e-001	9.967474e-001	1.865130e-002
1.057894856064757e-001	2.182720e+000	3.949783e-002
1.063480575853672e-001	3.456021e+000	5.924981e-002
1.068092974398423e-001	4.254590e+000	6.975005e-002
1.070347597515829e-001	4.520359e+000	7.237729e-002
1.072017653532148e-001	4.642663e+000	7.297440e-002
1.073742425335181e-001	4.706191e+000	7.255641e-002
1.076031760834351e-001	4.707014e+000	7.071862e-002
1.078179581308467e-001	4.611835e+000	6.764245e-002
1.081664108479679e-001	4.249517e+000	6.005028e-002
1.087230006464864e-001	3.305753e+000	4.406749e-002
1.092506589674369e-001	2.081511e+000	2.632973e-002
1.097588755245694e-001	6.736817e-001	8.451037e-003
1.102019834511716e-001	-6.275265e-001	-6.183957e-003
1.106460841989933e-001	-1.884130e+000	-1.859506e-002
1.111605504998687e-001	-3.129548e+000	-2.902077e-002
1.117893122111105e-001	-4.309356e+000	-3.686583e-002
1.120201775877053e-001	-4.606053e+000	-3.816935e-002
1.121908398661757e-001	-4.737278e+000	-3.824402e-002
1.123610479936035e-001	-4.806340e+000	-3.777965e-002
1.125727368504016e-001	-4.817525e+000	-3.661160e-002
1.127684228537086e-001	-4.745382e+000	-3.495133e-002
1.130862794909368e-001	-4.450074e+000	-3.118554e-002
1.135963749999478e-001	-3.645105e+000	-2.359379e-002
1.141488504028339e-001	-2.410998e+000	-1.432867e-002
1.147194010322429e-001	-8.565128e-001	-4.714189e-003
1.151632842501607e-001	4.424470e-001	1.963263e-003
1.156084791909034e-001	1.708878e+000	7.294056e-003
1.160971386823009e-001	2.910597e+000	1.121490e-002
1.167219003122898e-001	4.120133e+000	1.390681e-002
1.169712927204332e-001	4.459060e+000	1.423162e-002
1.171543280801270e-001	4.614124e+000	1.406891e-002
1.173167788938433e-001	4.696033e+000	1.373227e-002
1.174781236258541e-001	4.727200e+000	1.324996e-002
1.176418685242920e-001	4.703293e+000	1.262152e-002
1.178808891492145e-001	4.563782e+000	1.149569e-002
1.182679309297616e-001	4.103333e+000	9.367545e-003
1.188810470474144e-001	2.944077e+000	5.787928e-003
1.195084560101441e-001	1.377526e+000	2.364758e-003
1.199732674754303e-001	4.675128e-002	3.229066e-004
1.204444972521167e-001	-1.329515e+000	-1.112596e-003
1.208771070142091e-001	-2.479527e+000	-1.829668e-003
1.214783005030508e-001	-3.799302e+000	-2.115333e-003
1.218564565143412e-001	-4.418145e+000	-1.992425e-003
1.220693235069719e-001	-4.650743e+000	-1.819203e-003
1.222277208188964e-001	-4.758162e+000	-1.657531e-003
1.224056870497477e-001	-4.815928e+000	-1.459703e-003
1.226149109483096e-001	-4.807950e+000	-1.220322e-003
1.228370489132541e-001	-4.698593e+000	-9.734990e-004
1.231972435872277e-001	-4.302711e+000	-6.273067e-004
1.237714551663165e-001	-3.275500e+000	-2.338606e-004
1.243794409993504e-001	-1.809170e+000	-1.559345e-005
1.248465922482192e-001	-4.924580e-001	3.750220e-005
1.251019877255120e-001	2.679367e-001	3.943476e-005
1.252338952681227e-001	6.623546e-001	3.764990e-005
1.253575751831943e-001	1.027084e+000	3.595473e-005
1.255140796727728e-001	1.478240e+000	3.385133e-005
1.256801424703223e-001	1.943576e+000	3.178957e-005
1.257693443620915e-001	2.185553e+000	3.075497e-005
1.258438322497105e-001	2.381480e+000	2.987524e-005
1.259035379936660e-001	2.534785e+000	2.840825e-005
1.259456150204611e-001	2.640402e+000	2.398012e-005
1.259970446421259e-001	2.766781e+000	1.209307e-005
1.260908098557021e-001	2.988825e+000	-2.399669e-005
1.261883337766888e-001	3.206554e+000	-5.355683e-005
1.263234222055889e-001	3.489539e+000	4.309270e-005
1.264591407629657e-001	3.753019e+000	2.859820e-004
1.265324059776038e-001	3.884086e+000	3.784468e-004
1.267015118563930e-001	4.148099e+000	5.005393e-004
1.268148162446521e-001	4.297696e+000	6.128135e-004
1.269657214558065e-001	4.453400e+000	7.728616e-004
1.272675318781153e-001	4.662647e+000	1.111713e-003
1.274571540071965e-001	4.722621e+000	1.333332e-003
1.276340716867960e-001	4.704276e+000	1.540158e-003
1.278682118152330e-001	4.574198e+000	1.790738e-003
1.282475077722545e-001	4.134081e+000	2.069728e-003
1.288501024773650e-001	3.022650e+000	2.085214e-003
1.294224155183540e-001	1.619973e+000	1.449787e-003
